
T30FC 000:431 SEGGER J-Link V4.80 Log File (0002ms, 0275ms total)
T30FC 000:431 DLL Compiled: Dec 20 2013 19:37:53 (0002ms, 0275ms total)
T30FC 000:431 Logging started @ 2016-08-30 17:45 (0002ms, 0275ms total)
T30FC 000:433 JLINK_SetWarnOutHandler(...) (0000ms, 0275ms total)
T30FC 000:434 JLINK_OpenEx(...)
Firmware: J-Link ARM V8 compiled Nov 28 2014 13:44:46
Hardware: V8.00
S/N: 286370559
Feature(s): RDI,FlashDL,FlashBP,JFlash  returns O.K. (0279ms, 0555ms total)
T30FC 000:713 JLINK_SetErrorOutHandler(...) (0000ms, 0555ms total)
T30FC 000:713 JLINK_ExecCommand("ProjectFile = "E:\资源(G：)\#个人项目\keil_project\DEMO_STM32F103-V3.0未完成\Project\JLinkSettings.ini"", ...)  returns 0x00 (0001ms, 0556ms total)
T30FC 000:714 JLINK_ExecCommand("Device = STM32F103RC", ...)Device "STM32F103RC" selected (256 KB flash, 48 KB RAM).  returns 0x00 (0001ms, 0557ms total)
T30FC 000:715 JLINK_ExecCommand("DisableConnectionTimeout", ...)  returns 0x01 (0000ms, 0557ms total)
T30FC 000:715 JLINK_GetHardwareVersion()  returns 0x13880 (0000ms, 0557ms total)
T30FC 000:715 JLINK_GetDLLVersion()  returns 48000 (0000ms, 0557ms total)
T30FC 000:715 JLINK_GetFirmwareString(...) (0000ms, 0557ms total)
T30FC 000:716 JLINK_GetDLLVersion()  returns 48000 (0000ms, 0557ms total)
T30FC 000:716 JLINK_GetCompileDateTime() (0000ms, 0557ms total)
T30FC 000:716 JLINK_GetFirmwareString(...) (0000ms, 0557ms total)
T30FC 000:716 JLINK_GetHardwareVersion()  returns 0x13880 (0000ms, 0557ms total)
T30FC 000:717 JLINK_TIF_Select(JLINKARM_TIF_SWD)  returns 0x00 (0001ms, 0558ms total)
T30FC 000:718 JLINK_SetSpeed(5000) (0000ms, 0558ms total)
T30FC 000:718 JLINK_GetId() >0x108 TIF>Found SWD-DP with ID 0x1BA01477 >0x0D TIF> >0x28 TIF> >0x0D TIF> >0x28 TIF> >0x0D TIF> >0x21 TIF> >0x0D TIF> >0x28 TIF> >0x0D TIF> >0x28 TIF> >0x0D TIF> >0x28 TIF> >0x0D TIF> >0x21 TIF> >0x0D TIF> >0x21 TIF> >0x0D TIF> >0x28 TIF> >0x0D TIF> >0x21 TIF> >0x0D TIF> >0x21 TIF> >0x108 TIF>Found SWD-DP with ID 0x1BA01477 >0x0D TIF> >0x21 TIF> >0x0D TIF> >0x28 TIF> >0x0D TIF> >0x28 TIF> >0x0D TIF> >0x21 TIF> >0x0D TIF> >0x28 TIF> >0x0D TIF> >0x21 TIF> >0x0D TIF> >0x21 TIF>
 >0x0D TIF> >0x21 TIF> >0x0D TIF> >0x21 TIF> >0x0D TIF> >0x28 TIF> >0x0D TIF> >0x28 TIF> >0x0D TIF> >0x21 TIF> >0x0D TIF> >0x28 TIF> >0x0D TIF> >0x28 TIF> >0x0D TIF> >0x28 TIF> >0x0D TIF> >0x21 TIF> >0x0D TIF> >0x21 TIF> >0x0D TIF> >0x28 TIF> >0x0D TIF> >0x21 TIF> >0x0D TIF> >0x21 TIF>Found Cortex-M3 r1p1, Little endian. -- CPU_WriteMem(4 bytes @ 0xE0002000) -- CPU_ReadMem(4 bytes @ 0xE000EDF0) -- CPU_ReadMem(4 bytes @ 0xE0002000)FPUnit: 6 code (BP) slots and 2 literal slots
 -- CPU_ReadMem(4 bytes @ 0xE000EDFC) -- CPU_ReadMem(4 bytes @ 0xE0001000) -- CPU_WriteMem(4 bytes @ 0xE0001000) -- CPU_ReadMem(4 bytes @ 0xE00FF010)TPIU fitted. -- CPU_ReadMem(4 bytes @ 0xE00FF014)ETM fitted. -- CPU_ReadMem(4 bytes @ 0xE00FF018) >0x0D TIF> >0x21 TIF>  returns 0x1BA01477 (0024ms, 0582ms total)
T30FC 000:742 JLINK_GetDLLVersion()  returns 48000 (0000ms, 0582ms total)
T30FC 000:742 JLINK_CORE_GetFound()  returns 0x30000FF (0000ms, 0582ms total)
T30FC 000:742 JLINK_ReadMem (0xE00FF000, 0x0020 Bytes, ...) -- CPU is running -- CPU_ReadMem(32 bytes @ 0xE00FF000) -- Data:  03 F0 F0 FF 03 20 F0 FF 03 30 F0 FF 03 10 F0 FF ...  returns 0x00 (0000ms, 0582ms total)
T30FC 000:742 JLINK_ReadMem (0xE000EFF0, 0x0010 Bytes, ...) -- CPU is running -- CPU_ReadMem(16 bytes @ 0xE000EFF0) -- Data:  0D 00 00 00 E0 00 00 00 05 00 00 00 B1 00 00 00  returns 0x00 (0002ms, 0584ms total)
T30FC 000:744 JLINK_ReadMem (0xE000EFD0, 0x0020 Bytes, ...) -- CPU is running -- CPU_ReadMem(32 bytes @ 0xE000EFD0) -- Data:  04 00 00 00 00 00 00 00 00 00 00 00 00 00 00 00 ...  returns 0x00 (0000ms, 0584ms total)
T30FC 000:744 JLINK_ReadMem (0xE0001FF0, 0x0010 Bytes, ...) -- CPU is running -- CPU_ReadMem(16 bytes @ 0xE0001FF0) -- Data:  0D 00 00 00 E0 00 00 00 05 00 00 00 B1 00 00 00  returns 0x00 (0001ms, 0585ms total)
T30FC 000:745 JLINK_ReadMem (0xE0001FD0, 0x0020 Bytes, ...) -- CPU is running -- CPU_ReadMem(32 bytes @ 0xE0001FD0) -- Data:  04 00 00 00 00 00 00 00 00 00 00 00 00 00 00 00 ...  returns 0x00 (0001ms, 0586ms total)
T30FC 000:746 JLINK_ReadMem (0xE0002FF0, 0x0010 Bytes, ...) -- CPU is running -- CPU_ReadMem(16 bytes @ 0xE0002FF0) -- Data:  0D 00 00 00 E0 00 00 00 05 00 00 00 B1 00 00 00  returns 0x00 (0000ms, 0586ms total)
T30FC 000:746 JLINK_ReadMem (0xE0002FD0, 0x0020 Bytes, ...) -- CPU is running -- CPU_ReadMem(32 bytes @ 0xE0002FD0) -- Data:  04 00 00 00 00 00 00 00 00 00 00 00 00 00 00 00 ...  returns 0x00 (0001ms, 0587ms total)
T30FC 000:747 JLINK_ReadMem (0xE0000FF0, 0x0010 Bytes, ...) -- CPU is running -- CPU_ReadMem(16 bytes @ 0xE0000FF0) -- Data:  0D 00 00 00 E0 00 00 00 05 00 00 00 B1 00 00 00  returns 0x00 (0000ms, 0587ms total)
T30FC 000:747 JLINK_ReadMem (0xE0000FD0, 0x0020 Bytes, ...) -- CPU is running -- CPU_ReadMem(32 bytes @ 0xE0000FD0) -- Data:  04 00 00 00 00 00 00 00 00 00 00 00 00 00 00 00 ...  returns 0x00 (0001ms, 0588ms total)
T30FC 000:748 JLINK_ReadMem (0xE0040FF0, 0x0010 Bytes, ...) -- CPU is running -- CPU_ReadMem(16 bytes @ 0xE0040FF0) -- Data:  0D 00 00 00 90 00 00 00 05 00 00 00 B1 00 00 00  returns 0x00 (0000ms, 0588ms total)
T30FC 000:748 JLINK_ReadMem (0xE0040FD0, 0x0020 Bytes, ...) -- CPU is running -- CPU_ReadMem(32 bytes @ 0xE0040FD0) -- Data:  04 00 00 00 00 00 00 00 00 00 00 00 00 00 00 00 ...  returns 0x00 (0001ms, 0589ms total)
T30FC 000:749 JLINK_ReadMem (0xE0041FF0, 0x0010 Bytes, ...) -- CPU is running -- CPU_ReadMem(16 bytes @ 0xE0041FF0) -- Data:  0D 00 00 00 90 00 00 00 05 00 00 00 B1 00 00 00  returns 0x00 (0000ms, 0589ms total)
T30FC 000:749 JLINK_ReadMem (0xE0041FD0, 0x0020 Bytes, ...) -- CPU is running -- CPU_ReadMem(32 bytes @ 0xE0041FD0) -- Data:  04 00 00 00 00 00 00 00 00 00 00 00 00 00 00 00 ...  returns 0x00 (0001ms, 0590ms total)
T30FC 000:750 JLINK_ReadMemU32(0xE000ED00, 0x0001 Items, ...) -- CPU is running -- CPU_ReadMem(4 bytes @ 0xE000ED00) -- Data:  31 C2 1F 41  returns 0x01 (0000ms, 0590ms total)
T30FC 000:751 JLINK_SetResetType(JLINKARM_RESET_TYPE_NORMAL)  returns JLINKARM_RESET_TYPE_NORMAL (0000ms, 0591ms total)
T30FC 000:751 JLINK_Reset() -- CPU is running -- CPU_WriteMem(4 bytes @ 0xE000EDF0) -- CPU is running -- CPU_WriteMem(4 bytes @ 0xE000EDFC) >0x35 TIF> -- CPU is running -- CPU_WriteMem(4 bytes @ 0xE000ED0C) -- CPU is running -- CPU_ReadMem(4 bytes @ 0xE000EDF0) -- CPU is running -- CPU_ReadMem(4 bytes @ 0xE000EDF0) -- CPU is running -- CPU_WriteMem(4 bytes @ 0xE000EDF0) -- CPU is running -- CPU_WriteMem(4 bytes @ 0xE000EDFC) -- CPU is running -- CPU_ReadMem(4 bytes @ 0xE000EDF0)
 -- CPU_WriteMem(4 bytes @ 0xE0002000) (0015ms, 0606ms total)
T30FC 000:766 JLINK_ReadReg(R15 (PC))  returns 0x08001094 (0000ms, 0606ms total)
T30FC 000:766 JLINK_ReadReg(XPSR)  returns 0x01000000 (0000ms, 0606ms total)
T30FC 000:766 JLINK_Halt()  returns 0x00 (0001ms, 0607ms total)
T30FC 000:767 JLINK_IsHalted()  returns TRUE (0000ms, 0607ms total)
T30FC 000:767 JLINK_ReadMemU32(0xE000EDF0, 0x0001 Items, ...) -- CPU_ReadMem(4 bytes @ 0xE000EDF0) -- Data:  03 00 03 00  returns 0x01 (0000ms, 0607ms total)
T30FC 000:767 JLINK_WriteU32(0xE000EDF0, 0xA05F0003) -- CPU_WriteMem(4 bytes @ 0xE000EDF0)  returns 0x00 (0001ms, 0608ms total)
T30FC 000:768 JLINK_WriteU32(0xE000EDFC, 0x01000000) -- CPU_WriteMem(4 bytes @ 0xE000EDFC)  returns 0x00 (0000ms, 0608ms total)
T30FC 000:769 JLINK_GetHWStatus(...)  returns 0x00 (0000ms, 0608ms total)
T30FC 000:769 JLINK_GetNumBPUnits(Type = 0xFFFFFF00)  returns 0x06 (0000ms, 0608ms total)
T30FC 000:769 JLINK_GetNumBPUnits(Type = 0xF0)  returns 0x2000 (0001ms, 0609ms total)
T30FC 000:770 JLINK_GetNumWPUnits()  returns 0x04 (0000ms, 0609ms total)
T30FC 000:770 JLINK_GetSpeed()  returns 0xFA0 (0000ms, 0609ms total)
T30FC 000:770 JLINK_ReadMemU32(0xE000E004, 0x0001 Items, ...) -- CPU_ReadMem(4 bytes @ 0xE000E004) -- Data:  01 00 00 00  returns 0x01 (0001ms, 0610ms total)
T30FC 000:771 JLINK_ReadMemU32(0xE000E004, 0x0001 Items, ...) -- CPU_ReadMem(4 bytes @ 0xE000E004) -- Data:  01 00 00 00  returns 0x01 (0000ms, 0610ms total)
T30FC 000:771 JLINK_WriteMem(0xE0001000, 0x001C Bytes, ...) -- Data:  01 00 00 00 00 00 00 00 00 00 00 00 00 00 00 00 ... -- CPU_WriteMem(28 bytes @ 0xE0001000)  returns 0x1C (0001ms, 0611ms total)
T30FC 000:772 JLINK_ReadMem (0xE0001000, 0x001C Bytes, ...) -- CPU_ReadMem(28 bytes @ 0xE0001000) -- Data:  01 00 00 40 00 00 00 00 00 00 00 00 00 00 00 00 ...  returns 0x00 (0000ms, 0611ms total)
T30FC 000:772 JLINK_ReadReg(R15 (PC))  returns 0x08001094 (0000ms, 0611ms total)
T30FC 000:772 JLINK_ReadReg(XPSR)  returns 0x01000000 (0000ms, 0611ms total)
T30FC 000:850 JLINK_SetResetType(JLINKARM_RESET_TYPE_NORMAL)  returns JLINKARM_RESET_TYPE_NORMAL (0000ms, 0611ms total)
T30FC 000:850 JLINK_Reset() -- CPU_WriteMem(4 bytes @ 0xE000EDF0) -- CPU_WriteMem(4 bytes @ 0xE000EDFC) >0x35 TIF> -- CPU_WriteMem(4 bytes @ 0xE000ED0C) -- CPU_ReadMem(4 bytes @ 0xE000EDF0) -- CPU_ReadMem(4 bytes @ 0xE000EDF0) -- CPU_WriteMem(4 bytes @ 0xE000EDF0) -- CPU_WriteMem(4 bytes @ 0xE000EDFC) -- CPU is running -- CPU_ReadMem(4 bytes @ 0xE000EDF0) -- CPU_WriteMem(4 bytes @ 0xE0002000) (0015ms, 0626ms total)
T30FC 000:865 JLINK_ReadReg(R15 (PC))  returns 0x08001094 (0000ms, 0626ms total)
T30FC 000:865 JLINK_ReadReg(XPSR)  returns 0x01000000 (0000ms, 0626ms total)
T30FC 000:866 JLINK_ReadMem (0x08001094, 0x003C Bytes, ...) -- CPU_ReadMem(128 bytes @ 0x08001080) -- Updating C cache (128 bytes @ 0x08001080) -- Read from C cache (60 bytes @ 0x08001094) -- Data:  06 48 80 47 06 48 00 47 FE E7 FE E7 FE E7 FE E7 ...  returns 0x00 (0001ms, 0627ms total)
T30FC 000:988 JLINK_ReadMem (0x40010C00, 0x000C Bytes, ...) -- CPU_ReadMem(12 bytes @ 0x40010C00) -- Data:  44 44 48 44 44 44 44 44 00 00 00 00  returns 0x00 (0001ms, 0628ms total)
T30FC 000:989 JLINK_ReadMem (0x40010C0C, 0x0004 Bytes, ...) -- CPU_ReadMem(4 bytes @ 0x40010C0C) -- Data:  10 00 00 00  returns 0x00 (0000ms, 0628ms total)
T30FC 000:989 JLINK_ReadMem (0x40010C18, 0x0004 Bytes, ...) -- CPU_ReadMem(4 bytes @ 0x40010C18) -- Data:  00 00 00 00  returns 0x00 (0001ms, 0629ms total)
T30FC 001:031 JLINK_ReadMem (0x40013000, 0x0020 Bytes, ...) -- CPU_ReadMem(32 bytes @ 0x40013000) -- Data:  00 00 00 00 00 00 00 00 00 00 00 00 00 00 00 00 ...  returns 0x00 (0000ms, 0629ms total)
T30FC 001:031 JLINK_ReadMem (0x40013020, 0x0004 Bytes, ...) -- CPU_ReadMem(4 bytes @ 0x40013020) -- Data:  00 00 00 00  returns 0x00 (0001ms, 0630ms total)
T30FC 002:070 JLINK_ReadMem (0x20000058, 0x0004 Bytes, ...) -- CPU_ReadMem(64 bytes @ 0x20000040) -- Updating C cache (64 bytes @ 0x20000040) -- Read from C cache (4 bytes @ 0x20000058) -- Data:  00 15 00 20  returns 0x00 (0001ms, 0631ms total)
T30FC 002:075 JLINK_ReadMem (0xE000E018, 0x0004 Bytes, ...) -- CPU_ReadMem(4 bytes @ 0xE000E018) -- Data:  00 00 00 00  returns 0x00 (0001ms, 0632ms total)
T30FC 002:076 JLINK_ReadMem (0xE000E018, 0x0004 Bytes, ...) -- CPU_ReadMem(4 bytes @ 0xE000E018) -- Data:  00 00 00 00  returns 0x00 (0000ms, 0632ms total)
T30FC 002:076 JLINK_ReadMem (0xE000E018, 0x0004 Bytes, ...) -- CPU_ReadMem(4 bytes @ 0xE000E018) -- Data:  00 00 00 00  returns 0x00 (0001ms, 0633ms total)
T30FC 002:102 JLINK_ReadMem (0xE000E018, 0x0004 Bytes, ...) -- CPU_ReadMem(4 bytes @ 0xE000E018) -- Data:  00 00 00 00  returns 0x00 (0001ms, 0634ms total)
T30FC 002:103 JLINK_ReadMem (0x40013000, 0x0020 Bytes, ...) -- CPU_ReadMem(32 bytes @ 0x40013000) -- Data:  00 00 00 00 00 00 00 00 00 00 00 00 00 00 00 00 ...  returns 0x00 (0001ms, 0635ms total)
T30FC 002:104 JLINK_ReadMem (0x40013020, 0x0004 Bytes, ...) -- CPU_ReadMem(4 bytes @ 0x40013020) -- Data:  00 00 00 00  returns 0x00 (0000ms, 0635ms total)
T30FC 002:104 JLINK_ReadMem (0x40010C00, 0x000C Bytes, ...) -- CPU_ReadMem(12 bytes @ 0x40010C00) -- Data:  44 44 48 44 44 44 44 44 00 00 00 00  returns 0x00 (0001ms, 0636ms total)
T30FC 002:105 JLINK_ReadMem (0x40010C0C, 0x0004 Bytes, ...) -- CPU_ReadMem(4 bytes @ 0x40010C0C) -- Data:  10 00 00 00  returns 0x00 (0000ms, 0636ms total)
T30FC 002:105 JLINK_ReadMem (0x40010C18, 0x0004 Bytes, ...) -- CPU_ReadMem(4 bytes @ 0x40010C18) -- Data:  00 00 00 00  returns 0x00 (0001ms, 0637ms total)
T2020 003:018 JLINK_SetBPEx(Addr = 0x080022D2, Type = 0xFFFFFFF2)  returns 0x00000001 (0000ms, 0637ms total)
T2020 003:018 JLINK_SetBPEx(Addr = 0x0800019C, Type = 0xFFFFFFF2)  returns 0x00000002 (0000ms, 0637ms total)
T2020 003:018 JLINK_SetBPEx(Addr = 0x080011A4, Type = 0xFFFFFFF2)  returns 0x00000003 (0000ms, 0637ms total)
T2020 003:018 JLINK_Go() -- CPU_WriteMem(4 bytes @ 0xE0002000) -- CPU_WriteMem(4 bytes @ 0xE0002008) -- CPU_WriteMem(4 bytes @ 0xE0002000) -- CPU_WriteMem(4 bytes @ 0xE000200C) -- CPU_WriteMem(4 bytes @ 0xE0002000) -- CPU_WriteMem(4 bytes @ 0xE0002010) -- CPU_WriteMem(4 bytes @ 0xE0002014) -- CPU_WriteMem(4 bytes @ 0xE0002018) -- CPU_WriteMem(4 bytes @ 0xE000201C) (0005ms, 0642ms total)
T2020 003:124 JLINK_IsHalted()  returns TRUE (0003ms, 0645ms total)
T2020 003:127 JLINK_Halt()  returns 0x00 (0000ms, 0642ms total)
T2020 003:127 JLINK_IsHalted()  returns TRUE (0000ms, 0642ms total)
T2020 003:127 JLINK_IsHalted()  returns TRUE (0000ms, 0642ms total)
T2020 003:127 JLINK_IsHalted()  returns TRUE (0000ms, 0642ms total)
T2020 003:127 JLINK_ReadReg(R15 (PC))  returns 0x0800019C (0000ms, 0642ms total)
T2020 003:127 JLINK_ReadReg(XPSR)  returns 0x61000000 (0000ms, 0642ms total)
T2020 003:127 JLINK_ClrBPEx(BPHandle = 0x00000001)  returns 0x00 (0000ms, 0642ms total)
T2020 003:127 JLINK_ClrBPEx(BPHandle = 0x00000002)  returns 0x00 (0000ms, 0642ms total)
T2020 003:127 JLINK_ClrBPEx(BPHandle = 0x00000003)  returns 0x00 (0000ms, 0642ms total)
T2020 003:127 JLINK_ReadMemU32(0xE000ED30, 0x0001 Items, ...) -- CPU_ReadMem(4 bytes @ 0xE000ED30) -- Data:  03 00 00 00  returns 0x01 (0000ms, 0642ms total)
T2020 003:127 JLINK_ReadMemU32(0xE0001028, 0x0001 Items, ...) -- CPU_ReadMem(4 bytes @ 0xE0001028) -- Data:  00 00 00 00  returns 0x01 (0001ms, 0643ms total)
T2020 003:128 JLINK_ReadMemU32(0xE0001038, 0x0001 Items, ...) -- CPU_ReadMem(4 bytes @ 0xE0001038) -- Data:  00 02 00 00  returns 0x01 (0000ms, 0643ms total)
T2020 003:128 JLINK_ReadMemU32(0xE0001048, 0x0001 Items, ...) -- CPU_ReadMem(4 bytes @ 0xE0001048) -- Data:  00 00 00 00  returns 0x01 (0001ms, 0644ms total)
T2020 003:129 JLINK_ReadMemU32(0xE0001058, 0x0001 Items, ...) -- CPU_ReadMem(4 bytes @ 0xE0001058) -- Data:  00 00 00 00  returns 0x01 (0000ms, 0644ms total)
T2020 003:129 JLINK_ReadReg(R0)  returns 0x0800019B (0000ms, 0644ms total)
T2020 003:129 JLINK_ReadReg(R1)  returns 0x20001920 (0000ms, 0644ms total)
T2020 003:129 JLINK_ReadReg(R2)  returns 0x00000000 (0000ms, 0644ms total)
T2020 003:129 JLINK_ReadReg(R3)  returns 0x08002551 (0000ms, 0644ms total)
T2020 003:129 JLINK_ReadReg(R4)  returns 0x080026D4 (0000ms, 0644ms total)
T2020 003:129 JLINK_ReadReg(R5)  returns 0x080026D4 (0000ms, 0644ms total)
T2020 003:129 JLINK_ReadReg(R6)  returns 0x33921F85 (0000ms, 0644ms total)
T2020 003:129 JLINK_ReadReg(R7)  returns 0xA4223DBC (0000ms, 0644ms total)
T2020 003:129 JLINK_ReadReg(R8)  returns 0xFFEFF7BC (0000ms, 0644ms total)
T2020 003:129 JLINK_ReadReg(R9)  returns 0xFFFDFFDF (0000ms, 0644ms total)
T2020 003:129 JLINK_ReadReg(R10)  returns 0x27ACFD68 (0000ms, 0644ms total)
T2020 003:129 JLINK_ReadReg(R11)  returns 0x7BD63F96 (0000ms, 0644ms total)
T2020 003:129 JLINK_ReadReg(R12)  returns 0xFFFFFFFF (0000ms, 0644ms total)
T2020 003:129 JLINK_ReadReg(R13 (SP))  returns 0x20001918 (0000ms, 0644ms total)
T2020 003:129 JLINK_ReadReg(R14)  returns 0x08002519 (0000ms, 0644ms total)
T2020 003:129 JLINK_ReadReg(R15 (PC))  returns 0x0800019C (0000ms, 0644ms total)
T2020 003:129 JLINK_ReadReg(XPSR)  returns 0x61000000 (0000ms, 0644ms total)
T2020 003:129 JLINK_ReadReg(MSP)  returns 0x20001918 (0000ms, 0644ms total)
T2020 003:129 JLINK_ReadReg(PSP)  returns 0xAF6162E8 (0000ms, 0644ms total)
T2020 003:129 JLINK_ReadReg(CFBP)  returns 0x00000000 (0000ms, 0644ms total)
T30FC 003:129 JLINK_ReadMem (0x2000191C, 0x0004 Bytes, ...) -- CPU_ReadMem(64 bytes @ 0x20001900) -- Updating C cache (64 bytes @ 0x20001900) -- Read from C cache (4 bytes @ 0x2000191C) -- Data:  19 25 00 08  returns 0x00 (0001ms, 0645ms total)
T30FC 003:132 JLINK_ReadMem (0x20000058, 0x0004 Bytes, ...) -- CPU_ReadMem(64 bytes @ 0x20000040) -- Updating C cache (64 bytes @ 0x20000040) -- Read from C cache (4 bytes @ 0x20000058) -- Data:  00 15 00 20  returns 0x00 (0001ms, 0646ms total)
T30FC 003:133 JLINK_ReadMem (0xE000E018, 0x0004 Bytes, ...) -- CPU_ReadMem(4 bytes @ 0xE000E018) -- Data:  00 00 00 00  returns 0x00 (0000ms, 0646ms total)
T30FC 003:134 JLINK_ReadMem (0x40013000, 0x0020 Bytes, ...) -- CPU_ReadMem(32 bytes @ 0x40013000) -- Data:  00 00 00 00 00 00 00 00 00 00 00 00 00 00 00 00 ...  returns 0x00 (0001ms, 0647ms total)
T30FC 003:135 JLINK_ReadMem (0x40013020, 0x0004 Bytes, ...) -- CPU_ReadMem(4 bytes @ 0x40013020) -- Data:  00 00 00 00  returns 0x00 (0000ms, 0647ms total)
T30FC 003:135 JLINK_ReadMem (0x40010C00, 0x000C Bytes, ...) -- CPU_ReadMem(12 bytes @ 0x40010C00) -- Data:  44 44 48 44 44 44 44 44 00 00 00 00  returns 0x00 (0001ms, 0648ms total)
T30FC 003:136 JLINK_ReadMem (0x40010C0C, 0x0004 Bytes, ...) -- CPU_ReadMem(4 bytes @ 0x40010C0C) -- Data:  10 00 00 00  returns 0x00 (0000ms, 0648ms total)
T30FC 003:136 JLINK_ReadMem (0x40010C18, 0x0004 Bytes, ...) -- CPU_ReadMem(4 bytes @ 0x40010C18) -- Data:  00 00 00 00  returns 0x00 (0001ms, 0649ms total)
T30FC 003:137 JLINK_ReadMem (0x0800019C, 0x003C Bytes, ...) -- CPU_ReadMem(128 bytes @ 0x08000180) -- Updating C cache (128 bytes @ 0x08000180) -- Read from C cache (60 bytes @ 0x0800019C) -- Data:  01 F0 E6 FE 01 F0 C7 FC 01 F0 93 FE 00 F0 FB FF ...  returns 0x00 (0001ms, 0650ms total)
T2020 006:361 JLINK_SetBPEx(Addr = 0x080022D2, Type = 0xFFFFFFF2)  returns 0x00000004 (0001ms, 0651ms total)
T2020 006:362 JLINK_SetBPEx(Addr = 0x080011A4, Type = 0xFFFFFFF2)  returns 0x00000005 (0000ms, 0651ms total)
T2020 006:362 JLINK_Go() -- CPU_WriteMem(4 bytes @ 0xE0002000) -- CPU_WriteMem(4 bytes @ 0xE0002000) -- CPU_WriteMem(4 bytes @ 0xE000200C) -- CPU_WriteMem(4 bytes @ 0xE0002010) (0002ms, 0653ms total)
T2020 006:465 JLINK_IsHalted()  returns TRUE (0002ms, 0655ms total)
T2020 006:467 JLINK_Halt()  returns 0x00 (0000ms, 0653ms total)
T2020 006:467 JLINK_IsHalted()  returns TRUE (0000ms, 0653ms total)
T2020 006:467 JLINK_IsHalted()  returns TRUE (0001ms, 0654ms total)
T2020 006:468 JLINK_IsHalted()  returns TRUE (0000ms, 0653ms total)
T2020 006:468 JLINK_ReadReg(R15 (PC))  returns 0x080011A4 (0000ms, 0653ms total)
T2020 006:468 JLINK_ReadReg(XPSR)  returns 0x61000000 (0000ms, 0653ms total)
T2020 006:468 JLINK_ClrBPEx(BPHandle = 0x00000004)  returns 0x00 (0000ms, 0653ms total)
T2020 006:468 JLINK_ClrBPEx(BPHandle = 0x00000005)  returns 0x00 (0000ms, 0653ms total)
T2020 006:468 JLINK_ReadMemU32(0xE000ED30, 0x0001 Items, ...) -- CPU_ReadMem(4 bytes @ 0xE000ED30) -- Data:  03 00 00 00  returns 0x01 (0000ms, 0653ms total)
T2020 006:469 JLINK_ReadMemU32(0xE0001028, 0x0001 Items, ...) -- CPU_ReadMem(4 bytes @ 0xE0001028) -- Data:  00 00 00 00  returns 0x01 (0000ms, 0653ms total)
T2020 006:469 JLINK_ReadMemU32(0xE0001038, 0x0001 Items, ...) -- CPU_ReadMem(4 bytes @ 0xE0001038) -- Data:  00 02 00 00  returns 0x01 (0001ms, 0654ms total)
T2020 006:470 JLINK_ReadMemU32(0xE0001048, 0x0001 Items, ...) -- CPU_ReadMem(4 bytes @ 0xE0001048) -- Data:  00 00 00 00  returns 0x01 (0000ms, 0654ms total)
T2020 006:471 JLINK_ReadMemU32(0xE0001058, 0x0001 Items, ...) -- CPU_ReadMem(4 bytes @ 0xE0001058) -- Data:  00 00 00 00  returns 0x01 (0000ms, 0655ms total)
T2020 006:471 JLINK_ReadReg(R0)  returns 0x200000F0 (0000ms, 0655ms total)
T2020 006:471 JLINK_ReadReg(R1)  returns 0x20000054 (0000ms, 0655ms total)
T2020 006:471 JLINK_ReadReg(R2)  returns 0x0000000A (0000ms, 0655ms total)
T2020 006:471 JLINK_ReadReg(R3)  returns 0x20000913 (0001ms, 0656ms total)
T2020 006:472 JLINK_ReadReg(R4)  returns 0x080026D4 (0000ms, 0656ms total)
T2020 006:472 JLINK_ReadReg(R5)  returns 0x080026D4 (0000ms, 0656ms total)
T2020 006:472 JLINK_ReadReg(R6)  returns 0x33921F85 (0000ms, 0656ms total)
T2020 006:472 JLINK_ReadReg(R7)  returns 0xA4223DBC (0000ms, 0656ms total)
T2020 006:472 JLINK_ReadReg(R8)  returns 0xFFEFF7BC (0000ms, 0656ms total)
T2020 006:472 JLINK_ReadReg(R9)  returns 0xFFFDFFDF (0000ms, 0656ms total)
T2020 006:472 JLINK_ReadReg(R10)  returns 0x27ACFD68 (0000ms, 0656ms total)
T2020 006:472 JLINK_ReadReg(R11)  returns 0x7BD63F96 (0000ms, 0656ms total)
T2020 006:472 JLINK_ReadReg(R12)  returns 0xFFFFFFFF (0000ms, 0656ms total)
T2020 006:472 JLINK_ReadReg(R13 (SP))  returns 0x20001910 (0000ms, 0656ms total)
T2020 006:472 JLINK_ReadReg(R14)  returns 0x080001AD (0000ms, 0656ms total)
T2020 006:472 JLINK_ReadReg(R15 (PC))  returns 0x080011A4 (0000ms, 0656ms total)
T2020 006:472 JLINK_ReadReg(XPSR)  returns 0x61000000 (0000ms, 0656ms total)
T2020 006:472 JLINK_ReadReg(MSP)  returns 0x20001910 (0000ms, 0656ms total)
T2020 006:472 JLINK_ReadReg(PSP)  returns 0xAF6162E8 (0000ms, 0656ms total)
T2020 006:472 JLINK_ReadReg(CFBP)  returns 0x00000000 (0000ms, 0656ms total)
T30FC 006:477 JLINK_ReadMem (0x20001914, 0x0004 Bytes, ...) -- CPU_ReadMem(64 bytes @ 0x20001900) -- Updating C cache (64 bytes @ 0x20001900) -- Read from C cache (4 bytes @ 0x20001914) -- Data:  AD 01 00 08  returns 0x00 (0002ms, 0658ms total)
T30FC 006:479 JLINK_ReadMem (0x20001910, 0x0004 Bytes, ...) -- Read from C cache (4 bytes @ 0x20001910) -- Data:  D4 26 00 08  returns 0x00 (0000ms, 0658ms total)
T30FC 006:479 JLINK_ReadMem (0x2000191C, 0x0004 Bytes, ...) -- Read from C cache (4 bytes @ 0x2000191C) -- Data:  19 25 00 08  returns 0x00 (0000ms, 0658ms total)
T30FC 006:486 JLINK_ReadMem (0x20000058, 0x0004 Bytes, ...) -- CPU_ReadMem(64 bytes @ 0x20000040) -- Updating C cache (64 bytes @ 0x20000040) -- Read from C cache (4 bytes @ 0x20000058) -- Data:  00 15 00 20  returns 0x00 (0001ms, 0659ms total)
T30FC 006:487 JLINK_ReadMem (0xE000E018, 0x0004 Bytes, ...) -- CPU_ReadMem(4 bytes @ 0xE000E018) -- Data:  00 00 00 00  returns 0x00 (0001ms, 0660ms total)
T30FC 006:491 JLINK_ReadMem (0x40013000, 0x0020 Bytes, ...) -- CPU_ReadMem(32 bytes @ 0x40013000) -- Data:  00 00 00 00 00 00 00 00 00 00 00 00 00 00 00 00 ...  returns 0x00 (0001ms, 0661ms total)
T30FC 006:492 JLINK_ReadMem (0x40013020, 0x0004 Bytes, ...) -- CPU_ReadMem(4 bytes @ 0x40013020) -- Data:  00 00 00 00  returns 0x00 (0000ms, 0661ms total)
T30FC 006:494 JLINK_ReadMem (0x40010C00, 0x000C Bytes, ...) -- CPU_ReadMem(12 bytes @ 0x40010C00) -- Data:  44 44 48 44 44 44 44 44 00 00 00 00  returns 0x00 (0001ms, 0662ms total)
T30FC 006:495 JLINK_ReadMem (0x40010C0C, 0x0004 Bytes, ...) -- CPU_ReadMem(4 bytes @ 0x40010C0C) -- Data:  10 00 00 00  returns 0x00 (0000ms, 0662ms total)
T30FC 006:495 JLINK_ReadMem (0x40010C18, 0x0004 Bytes, ...) -- CPU_ReadMem(4 bytes @ 0x40010C18) -- Data:  00 00 00 00  returns 0x00 (0001ms, 0663ms total)
T30FC 006:497 JLINK_ReadMem (0x080011A4, 0x003C Bytes, ...) -- CPU_ReadMem(128 bytes @ 0x08001180) -- Updating C cache (128 bytes @ 0x08001180) -- Read from C cache (60 bytes @ 0x080011A4) -- Data:  FF F7 32 FB 4F F4 80 30 FF F7 4E FB FF F7 8B FB ...  returns 0x00 (0002ms, 0665ms total)
T2020 007:800 JLINK_Step() -- Read from C cache (2 bytes @ 0x080011A4) -- Read from C cache (2 bytes @ 0x080011A6) -- Simulated  returns 0x00 (0000ms, 0665ms total)
T2020 007:800 JLINK_ReadReg(R15 (PC))  returns 0x0800080C (0000ms, 0665ms total)
T2020 007:800 JLINK_ReadReg(XPSR)  returns 0x61000000 (0000ms, 0665ms total)
T2020 007:800 JLINK_SetBPEx(Addr = 0x080011A8, Type = 0xFFFFFFF2)  returns 0x00000006 (0001ms, 0666ms total)
T2020 007:801 JLINK_SetBPEx(Addr = 0x080022D2, Type = 0xFFFFFFF2)  returns 0x00000007 (0000ms, 0666ms total)
T2020 007:801 JLINK_SetBPEx(Addr = 0x080011A4, Type = 0xFFFFFFF2)  returns 0x00000008 (0000ms, 0666ms total)
T2020 007:801 JLINK_Go() -- CPU_WriteMem(4 bytes @ 0xE0002000) -- CPU_WriteMem(4 bytes @ 0xE0002000) -- CPU_WriteMem(4 bytes @ 0xE0002000) -- CPU_WriteMem(4 bytes @ 0xE0002008) -- CPU_WriteMem(4 bytes @ 0xE000200C) -- CPU_WriteMem(4 bytes @ 0xE0002010) (0003ms, 0669ms total)
T2020 007:905 JLINK_IsHalted()  returns TRUE (0002ms, 0671ms total)
T2020 007:907 JLINK_Halt()  returns 0x00 (0000ms, 0669ms total)
T2020 007:907 JLINK_IsHalted()  returns TRUE (0000ms, 0669ms total)
T2020 007:907 JLINK_IsHalted()  returns TRUE (0000ms, 0669ms total)
T2020 007:907 JLINK_IsHalted()  returns TRUE (0000ms, 0669ms total)
T2020 007:907 JLINK_ReadReg(R15 (PC))  returns 0x080011A8 (0000ms, 0669ms total)
T2020 007:907 JLINK_ReadReg(XPSR)  returns 0x21000000 (0001ms, 0670ms total)
T2020 007:908 JLINK_ClrBPEx(BPHandle = 0x00000006)  returns 0x00 (0000ms, 0670ms total)
T2020 007:908 JLINK_ClrBPEx(BPHandle = 0x00000007)  returns 0x00 (0000ms, 0670ms total)
T2020 007:908 JLINK_ClrBPEx(BPHandle = 0x00000008)  returns 0x00 (0000ms, 0670ms total)
T2020 007:908 JLINK_ReadMemU32(0xE000ED30, 0x0001 Items, ...) -- CPU_ReadMem(4 bytes @ 0xE000ED30) -- Data:  03 00 00 00  returns 0x01 (0000ms, 0670ms total)
T2020 007:908 JLINK_ReadMemU32(0xE0001028, 0x0001 Items, ...) -- CPU_ReadMem(4 bytes @ 0xE0001028) -- Data:  00 00 00 00  returns 0x01 (0000ms, 0670ms total)
T2020 007:908 JLINK_ReadMemU32(0xE0001038, 0x0001 Items, ...) -- CPU_ReadMem(4 bytes @ 0xE0001038) -- Data:  00 02 00 00  returns 0x01 (0001ms, 0671ms total)
T2020 007:909 JLINK_ReadMemU32(0xE0001048, 0x0001 Items, ...) -- CPU_ReadMem(4 bytes @ 0xE0001048) -- Data:  00 00 00 00  returns 0x01 (0000ms, 0671ms total)
T2020 007:909 JLINK_ReadMemU32(0xE0001058, 0x0001 Items, ...) -- CPU_ReadMem(4 bytes @ 0xE0001058) -- Data:  00 00 00 00  returns 0x01 (0001ms, 0672ms total)
T2020 007:910 JLINK_ReadReg(R0)  returns 0x009F0000 (0000ms, 0672ms total)
T2020 007:910 JLINK_ReadReg(R1)  returns 0x40021000 (0000ms, 0672ms total)
T2020 007:910 JLINK_ReadReg(R2)  returns 0x0000000A (0000ms, 0672ms total)
T2020 007:910 JLINK_ReadReg(R3)  returns 0x20000913 (0000ms, 0672ms total)
T2020 007:910 JLINK_ReadReg(R4)  returns 0x080026D4 (0000ms, 0672ms total)
T2020 007:910 JLINK_ReadReg(R5)  returns 0x080026D4 (0000ms, 0672ms total)
T2020 007:910 JLINK_ReadReg(R6)  returns 0x33921F85 (0000ms, 0672ms total)
T2020 007:910 JLINK_ReadReg(R7)  returns 0xA4223DBC (0000ms, 0672ms total)
T2020 007:910 JLINK_ReadReg(R8)  returns 0xFFEFF7BC (0000ms, 0672ms total)
T2020 007:910 JLINK_ReadReg(R9)  returns 0xFFFDFFDF (0000ms, 0672ms total)
T2020 007:910 JLINK_ReadReg(R10)  returns 0x27ACFD68 (0000ms, 0672ms total)
T2020 007:910 JLINK_ReadReg(R11)  returns 0x7BD63F96 (0000ms, 0672ms total)
T2020 007:910 JLINK_ReadReg(R12)  returns 0xFFFFFFFF (0000ms, 0672ms total)
T2020 007:910 JLINK_ReadReg(R13 (SP))  returns 0x20001910 (0000ms, 0672ms total)
T2020 007:910 JLINK_ReadReg(R14)  returns 0x080011A9 (0000ms, 0672ms total)
T2020 007:910 JLINK_ReadReg(R15 (PC))  returns 0x080011A8 (0000ms, 0672ms total)
T2020 007:910 JLINK_ReadReg(XPSR)  returns 0x21000000 (0000ms, 0672ms total)
T2020 007:910 JLINK_ReadReg(MSP)  returns 0x20001910 (0000ms, 0672ms total)
T2020 007:910 JLINK_ReadReg(PSP)  returns 0xAF6162E8 (0000ms, 0672ms total)
T2020 007:910 JLINK_ReadReg(CFBP)  returns 0x00000000 (0000ms, 0672ms total)
T30FC 007:910 JLINK_ReadMem (0x20001914, 0x0004 Bytes, ...) -- CPU_ReadMem(64 bytes @ 0x20001900) -- Updating C cache (64 bytes @ 0x20001900) -- Read from C cache (4 bytes @ 0x20001914) -- Data:  AD 01 00 08  returns 0x00 (0001ms, 0673ms total)
T30FC 007:911 JLINK_ReadMem (0x20001910, 0x0004 Bytes, ...) -- Read from C cache (4 bytes @ 0x20001910) -- Data:  D4 26 00 08  returns 0x00 (0000ms, 0673ms total)
T30FC 007:911 JLINK_ReadMem (0x2000191C, 0x0004 Bytes, ...) -- Read from C cache (4 bytes @ 0x2000191C) -- Data:  19 25 00 08  returns 0x00 (0000ms, 0673ms total)
T30FC 007:912 JLINK_ReadMem (0x20000058, 0x0004 Bytes, ...) -- CPU_ReadMem(64 bytes @ 0x20000040) -- Updating C cache (64 bytes @ 0x20000040) -- Read from C cache (4 bytes @ 0x20000058) -- Data:  00 15 00 20  returns 0x00 (0001ms, 0674ms total)
T30FC 007:913 JLINK_ReadMem (0xE000E018, 0x0004 Bytes, ...) -- CPU_ReadMem(4 bytes @ 0xE000E018) -- Data:  00 00 00 00  returns 0x00 (0000ms, 0674ms total)
T30FC 007:915 JLINK_ReadMem (0x40013000, 0x0020 Bytes, ...) -- CPU_ReadMem(32 bytes @ 0x40013000) -- Data:  00 00 00 00 00 00 00 00 00 00 00 00 00 00 00 00 ...  returns 0x00 (0000ms, 0674ms total)
T30FC 007:915 JLINK_ReadMem (0x40013020, 0x0004 Bytes, ...) -- CPU_ReadMem(4 bytes @ 0x40013020) -- Data:  00 00 00 00  returns 0x00 (0000ms, 0674ms total)
T30FC 007:916 JLINK_ReadMem (0x40010C00, 0x000C Bytes, ...) -- CPU_ReadMem(12 bytes @ 0x40010C00) -- Data:  44 44 48 44 44 44 44 44 00 00 00 00  returns 0x00 (0001ms, 0675ms total)
T30FC 007:917 JLINK_ReadMem (0x40010C0C, 0x0004 Bytes, ...) -- CPU_ReadMem(4 bytes @ 0x40010C0C) -- Data:  10 00 00 00  returns 0x00 (0000ms, 0675ms total)
T30FC 007:917 JLINK_ReadMem (0x40010C18, 0x0004 Bytes, ...) -- CPU_ReadMem(4 bytes @ 0x40010C18) -- Data:  00 00 00 00  returns 0x00 (0001ms, 0676ms total)
T30FC 007:918 JLINK_ReadMem (0x080011A8, 0x003C Bytes, ...) -- CPU_ReadMem(128 bytes @ 0x08001180) -- Updating C cache (128 bytes @ 0x08001180) -- Read from C cache (60 bytes @ 0x080011A8) -- Data:  4F F4 80 30 FF F7 4E FB FF F7 8B FB 04 46 00 BF ...  returns 0x00 (0001ms, 0677ms total)
T2020 008:565 JLINK_Step() -- Read from C cache (2 bytes @ 0x080011A8) -- Read from C cache (2 bytes @ 0x080011AA) -- Simulated  returns 0x00 (0000ms, 0677ms total)
T2020 008:565 JLINK_ReadReg(R15 (PC))  returns 0x080011AC (0000ms, 0677ms total)
T2020 008:565 JLINK_ReadReg(XPSR)  returns 0x21000000 (0000ms, 0677ms total)
T2020 008:565 JLINK_ReadReg(R0)  returns 0x00010000 (0000ms, 0677ms total)
T2020 008:565 JLINK_ReadReg(R1)  returns 0x40021000 (0000ms, 0677ms total)
T2020 008:565 JLINK_ReadReg(R2)  returns 0x0000000A (0000ms, 0677ms total)
T2020 008:565 JLINK_ReadReg(R3)  returns 0x20000913 (0000ms, 0677ms total)
T2020 008:565 JLINK_ReadReg(R4)  returns 0x080026D4 (0000ms, 0677ms total)
T2020 008:565 JLINK_ReadReg(R5)  returns 0x080026D4 (0000ms, 0677ms total)
T2020 008:565 JLINK_ReadReg(R6)  returns 0x33921F85 (0000ms, 0677ms total)
T2020 008:565 JLINK_ReadReg(R7)  returns 0xA4223DBC (0000ms, 0677ms total)
T2020 008:565 JLINK_ReadReg(R8)  returns 0xFFEFF7BC (0000ms, 0677ms total)
T2020 008:565 JLINK_ReadReg(R9)  returns 0xFFFDFFDF (0000ms, 0677ms total)
T2020 008:565 JLINK_ReadReg(R10)  returns 0x27ACFD68 (0000ms, 0677ms total)
T2020 008:565 JLINK_ReadReg(R11)  returns 0x7BD63F96 (0000ms, 0677ms total)
T2020 008:565 JLINK_ReadReg(R12)  returns 0xFFFFFFFF (0000ms, 0677ms total)
T2020 008:565 JLINK_ReadReg(R13 (SP))  returns 0x20001910 (0000ms, 0677ms total)
T2020 008:565 JLINK_ReadReg(R14)  returns 0x080011A9 (0000ms, 0677ms total)
T2020 008:565 JLINK_ReadReg(R15 (PC))  returns 0x080011AC (0000ms, 0677ms total)
T2020 008:565 JLINK_ReadReg(XPSR)  returns 0x21000000 (0000ms, 0677ms total)
T2020 008:565 JLINK_ReadReg(MSP)  returns 0x20001910 (0000ms, 0677ms total)
T2020 008:565 JLINK_ReadReg(PSP)  returns 0xAF6162E8 (0000ms, 0677ms total)
T2020 008:565 JLINK_ReadReg(CFBP)  returns 0x00000000 (0000ms, 0677ms total)
T30FC 008:566 JLINK_ReadMem (0x20001914, 0x0004 Bytes, ...) -- Read from C cache (4 bytes @ 0x20001914) -- Data:  AD 01 00 08  returns 0x00 (0000ms, 0677ms total)
T30FC 008:566 JLINK_ReadMem (0x20001910, 0x0004 Bytes, ...) -- Read from C cache (4 bytes @ 0x20001910) -- Data:  D4 26 00 08  returns 0x00 (0000ms, 0677ms total)
T30FC 008:566 JLINK_ReadMem (0x2000191C, 0x0004 Bytes, ...) -- Read from C cache (4 bytes @ 0x2000191C) -- Data:  19 25 00 08  returns 0x00 (0000ms, 0677ms total)
T30FC 008:568 JLINK_ReadMem (0x20000058, 0x0004 Bytes, ...) -- Read from C cache (4 bytes @ 0x20000058) -- Data:  00 15 00 20  returns 0x00 (0000ms, 0677ms total)
T30FC 008:568 JLINK_ReadMem (0xE000E018, 0x0004 Bytes, ...) -- CPU_ReadMem(4 bytes @ 0xE000E018) -- Data:  00 00 00 00  returns 0x00 (0000ms, 0677ms total)
T30FC 008:568 JLINK_ReadMem (0x40013000, 0x0020 Bytes, ...) -- CPU_ReadMem(32 bytes @ 0x40013000) -- Data:  00 00 00 00 00 00 00 00 00 00 00 00 00 00 00 00 ...  returns 0x00 (0002ms, 0679ms total)
T30FC 008:570 JLINK_ReadMem (0x40013020, 0x0004 Bytes, ...) -- CPU_ReadMem(4 bytes @ 0x40013020) -- Data:  00 00 00 00  returns 0x00 (0000ms, 0679ms total)
T30FC 008:570 JLINK_ReadMem (0x40010C00, 0x000C Bytes, ...) -- CPU_ReadMem(12 bytes @ 0x40010C00) -- Data:  44 44 48 44 44 44 44 44 00 00 00 00  returns 0x00 (0001ms, 0680ms total)
T30FC 008:571 JLINK_ReadMem (0x40010C0C, 0x0004 Bytes, ...) -- CPU_ReadMem(4 bytes @ 0x40010C0C) -- Data:  10 00 00 00  returns 0x00 (0001ms, 0681ms total)
T30FC 008:572 JLINK_ReadMem (0x40010C18, 0x0004 Bytes, ...) -- CPU_ReadMem(4 bytes @ 0x40010C18) -- Data:  00 00 00 00  returns 0x00 (0000ms, 0681ms total)
T2020 009:966 JLINK_ReadMem (0x080011AC, 0x003C Bytes, ...) -- Read from C cache (60 bytes @ 0x080011AC) -- Data:  FF F7 4E FB FF F7 8B FB 04 46 00 BF 00 2C FD D0 ...  returns 0x00 (0000ms, 0681ms total)
T2020 009:966 JLINK_SetBPEx(Addr = 0x080011B0, Type = 0xFFFFFFF2)  returns 0x00000009 (0000ms, 0681ms total)
T2020 009:966 JLINK_SetBPEx(Addr = 0x080022D2, Type = 0xFFFFFFF2)  returns 0x0000000A (0000ms, 0681ms total)
T2020 009:966 JLINK_SetBPEx(Addr = 0x080011A4, Type = 0xFFFFFFF2)  returns 0x0000000B (0000ms, 0681ms total)
T2020 009:966 JLINK_Go() -- CPU_WriteMem(4 bytes @ 0xE0002000) -- CPU_WriteMem(4 bytes @ 0xE0002000) -- CPU_WriteMem(4 bytes @ 0xE0002000) -- CPU_WriteMem(4 bytes @ 0xE0002008) (0004ms, 0685ms total)
T2020 010:070 JLINK_IsHalted()  returns TRUE (0002ms, 0687ms total)
T2020 010:072 JLINK_Halt()  returns 0x00 (0000ms, 0685ms total)
T2020 010:072 JLINK_IsHalted()  returns TRUE (0000ms, 0685ms total)
T2020 010:072 JLINK_IsHalted()  returns TRUE (0000ms, 0685ms total)
T2020 010:072 JLINK_IsHalted()  returns TRUE (0000ms, 0685ms total)
T2020 010:072 JLINK_ReadReg(R15 (PC))  returns 0x080011B0 (0000ms, 0685ms total)
T2020 010:072 JLINK_ReadReg(XPSR)  returns 0x61000000 (0000ms, 0685ms total)
T2020 010:072 JLINK_ClrBPEx(BPHandle = 0x00000009)  returns 0x00 (0000ms, 0685ms total)
T2020 010:072 JLINK_ClrBPEx(BPHandle = 0x0000000A)  returns 0x00 (0000ms, 0685ms total)
T2020 010:072 JLINK_ClrBPEx(BPHandle = 0x0000000B)  returns 0x00 (0000ms, 0685ms total)
T2020 010:072 JLINK_ReadMemU32(0xE000ED30, 0x0001 Items, ...) -- CPU_ReadMem(4 bytes @ 0xE000ED30) -- Data:  03 00 00 00  returns 0x01 (0001ms, 0686ms total)
T2020 010:073 JLINK_ReadMemU32(0xE0001028, 0x0001 Items, ...) -- CPU_ReadMem(4 bytes @ 0xE0001028) -- Data:  00 00 00 00  returns 0x01 (0000ms, 0686ms total)
T2020 010:073 JLINK_ReadMemU32(0xE0001038, 0x0001 Items, ...) -- CPU_ReadMem(4 bytes @ 0xE0001038) -- Data:  00 02 00 00  returns 0x01 (0000ms, 0686ms total)
T2020 010:073 JLINK_ReadMemU32(0xE0001048, 0x0001 Items, ...) -- CPU_ReadMem(4 bytes @ 0xE0001048) -- Data:  00 00 00 00  returns 0x01 (0001ms, 0687ms total)
T2020 010:074 JLINK_ReadMemU32(0xE0001058, 0x0001 Items, ...) -- CPU_ReadMem(4 bytes @ 0xE0001058) -- Data:  00 00 00 00  returns 0x01 (0000ms, 0687ms total)
T2020 010:074 JLINK_ReadReg(R0)  returns 0x00010000 (0000ms, 0687ms total)
T2020 010:074 JLINK_ReadReg(R1)  returns 0x00015283 (0000ms, 0687ms total)
T2020 010:074 JLINK_ReadReg(R2)  returns 0x40021000 (0000ms, 0687ms total)
T2020 010:074 JLINK_ReadReg(R3)  returns 0x20000913 (0000ms, 0687ms total)
T2020 010:074 JLINK_ReadReg(R4)  returns 0x080026D4 (0000ms, 0687ms total)
T2020 010:074 JLINK_ReadReg(R5)  returns 0x080026D4 (0000ms, 0687ms total)
T2020 010:074 JLINK_ReadReg(R6)  returns 0x33921F85 (0000ms, 0687ms total)
T2020 010:074 JLINK_ReadReg(R7)  returns 0xA4223DBC (0000ms, 0687ms total)
T2020 010:074 JLINK_ReadReg(R8)  returns 0xFFEFF7BC (0000ms, 0687ms total)
T2020 010:074 JLINK_ReadReg(R9)  returns 0xFFFDFFDF (0000ms, 0687ms total)
T2020 010:074 JLINK_ReadReg(R10)  returns 0x27ACFD68 (0000ms, 0687ms total)
T2020 010:074 JLINK_ReadReg(R11)  returns 0x7BD63F96 (0000ms, 0687ms total)
T2020 010:074 JLINK_ReadReg(R12)  returns 0xFFFFFFFF (0000ms, 0687ms total)
T2020 010:074 JLINK_ReadReg(R13 (SP))  returns 0x20001910 (0000ms, 0687ms total)
T2020 010:074 JLINK_ReadReg(R14)  returns 0x080011B1 (0000ms, 0687ms total)
T2020 010:074 JLINK_ReadReg(R15 (PC))  returns 0x080011B0 (0000ms, 0687ms total)
T2020 010:074 JLINK_ReadReg(XPSR)  returns 0x61000000 (0000ms, 0687ms total)
T2020 010:075 JLINK_ReadReg(MSP)  returns 0x20001910 (0000ms, 0688ms total)
T2020 010:075 JLINK_ReadReg(PSP)  returns 0xAF6162E8 (0000ms, 0688ms total)
T2020 010:075 JLINK_ReadReg(CFBP)  returns 0x00000000 (0000ms, 0688ms total)
T30FC 010:075 JLINK_ReadMem (0x20001914, 0x0004 Bytes, ...) -- CPU_ReadMem(64 bytes @ 0x20001900) -- Updating C cache (64 bytes @ 0x20001900) -- Read from C cache (4 bytes @ 0x20001914) -- Data:  AD 01 00 08  returns 0x00 (0001ms, 0689ms total)
T30FC 010:076 JLINK_ReadMem (0x20001910, 0x0004 Bytes, ...) -- Read from C cache (4 bytes @ 0x20001910) -- Data:  D4 26 00 08  returns 0x00 (0000ms, 0689ms total)
T30FC 010:076 JLINK_ReadMem (0x2000191C, 0x0004 Bytes, ...) -- Read from C cache (4 bytes @ 0x2000191C) -- Data:  19 25 00 08  returns 0x00 (0000ms, 0689ms total)
T30FC 010:077 JLINK_ReadMem (0x20000058, 0x0004 Bytes, ...) -- CPU_ReadMem(64 bytes @ 0x20000040) -- Updating C cache (64 bytes @ 0x20000040) -- Read from C cache (4 bytes @ 0x20000058) -- Data:  00 15 00 20  returns 0x00 (0001ms, 0690ms total)
T30FC 010:078 JLINK_ReadMem (0xE000E018, 0x0004 Bytes, ...) -- CPU_ReadMem(4 bytes @ 0xE000E018) -- Data:  00 00 00 00  returns 0x00 (0000ms, 0690ms total)
T30FC 010:079 JLINK_ReadMem (0x40013000, 0x0020 Bytes, ...) -- CPU_ReadMem(32 bytes @ 0x40013000) -- Data:  00 00 00 00 00 00 00 00 00 00 00 00 00 00 00 00 ...  returns 0x00 (0001ms, 0691ms total)
T30FC 010:080 JLINK_ReadMem (0x40013020, 0x0004 Bytes, ...) -- CPU_ReadMem(4 bytes @ 0x40013020) -- Data:  00 00 00 00  returns 0x00 (0000ms, 0691ms total)
T30FC 010:081 JLINK_ReadMem (0x40010C00, 0x000C Bytes, ...) -- CPU_ReadMem(12 bytes @ 0x40010C00) -- Data:  44 44 48 44 44 44 44 44 00 00 00 00  returns 0x00 (0000ms, 0691ms total)
T30FC 010:081 JLINK_ReadMem (0x40010C0C, 0x0004 Bytes, ...) -- CPU_ReadMem(4 bytes @ 0x40010C0C) -- Data:  10 00 00 00  returns 0x00 (0000ms, 0691ms total)
T30FC 010:081 JLINK_ReadMem (0x40010C18, 0x0004 Bytes, ...) -- CPU_ReadMem(4 bytes @ 0x40010C18) -- Data:  00 00 00 00  returns 0x00 (0001ms, 0692ms total)
T30FC 010:082 JLINK_ReadMem (0x080011B0, 0x003C Bytes, ...) -- CPU_ReadMem(128 bytes @ 0x08001180) -- Updating C cache (128 bytes @ 0x08001180) -- Read from C cache (60 bytes @ 0x080011B0) -- Data:  FF F7 8B FB 04 46 00 BF 00 2C FD D0 00 20 FF F7 ...  returns 0x00 (0001ms, 0693ms total)
T2020 010:447 JLINK_SetBPEx(Addr = 0x080011B4, Type = 0xFFFFFFF2)  returns 0x0000000C (0000ms, 0693ms total)
T2020 010:447 JLINK_SetBPEx(Addr = 0x080022D2, Type = 0xFFFFFFF2)  returns 0x0000000D (0000ms, 0693ms total)
T2020 010:447 JLINK_SetBPEx(Addr = 0x080011A4, Type = 0xFFFFFFF2)  returns 0x0000000E (0000ms, 0693ms total)
T2020 010:447 JLINK_Go() -- CPU_WriteMem(4 bytes @ 0xE0002000) -- CPU_WriteMem(4 bytes @ 0xE0002000) -- CPU_WriteMem(4 bytes @ 0xE0002000) -- CPU_WriteMem(4 bytes @ 0xE0002008) (0003ms, 0696ms total)
T2020 010:550 JLINK_IsHalted()  returns TRUE (0002ms, 0698ms total)
T2020 010:552 JLINK_Halt()  returns 0x00 (0000ms, 0696ms total)
T2020 010:552 JLINK_IsHalted()  returns TRUE (0000ms, 0696ms total)
T2020 010:552 JLINK_IsHalted()  returns TRUE (0000ms, 0696ms total)
T2020 010:552 JLINK_IsHalted()  returns TRUE (0000ms, 0696ms total)
T2020 010:552 JLINK_ReadReg(R15 (PC))  returns 0x080011B4 (0000ms, 0696ms total)
T2020 010:552 JLINK_ReadReg(XPSR)  returns 0x41000000 (0000ms, 0696ms total)
T2020 010:552 JLINK_ClrBPEx(BPHandle = 0x0000000C)  returns 0x00 (0000ms, 0696ms total)
T2020 010:552 JLINK_ClrBPEx(BPHandle = 0x0000000D)  returns 0x00 (0000ms, 0696ms total)
T2020 010:552 JLINK_ClrBPEx(BPHandle = 0x0000000E)  returns 0x00 (0000ms, 0696ms total)
T2020 010:552 JLINK_ReadMemU32(0xE000ED30, 0x0001 Items, ...) -- CPU_ReadMem(4 bytes @ 0xE000ED30) -- Data:  03 00 00 00  returns 0x01 (0001ms, 0697ms total)
T2020 010:553 JLINK_ReadMemU32(0xE0001028, 0x0001 Items, ...) -- CPU_ReadMem(4 bytes @ 0xE0001028) -- Data:  00 00 00 00  returns 0x01 (0000ms, 0697ms total)
T2020 010:553 JLINK_ReadMemU32(0xE0001038, 0x0001 Items, ...) -- CPU_ReadMem(4 bytes @ 0xE0001038) -- Data:  00 02 00 00  returns 0x01 (0001ms, 0698ms total)
T2020 010:554 JLINK_ReadMemU32(0xE0001048, 0x0001 Items, ...) -- CPU_ReadMem(4 bytes @ 0xE0001048) -- Data:  00 00 00 00  returns 0x01 (0000ms, 0698ms total)
T2020 010:554 JLINK_ReadMemU32(0xE0001058, 0x0001 Items, ...) -- CPU_ReadMem(4 bytes @ 0xE0001058) -- Data:  00 00 00 00  returns 0x01 (0001ms, 0699ms total)
T2020 010:555 JLINK_ReadReg(R0)  returns 0x00000000 (0000ms, 0699ms total)
T2020 010:555 JLINK_ReadReg(R1)  returns 0x00000031 (0000ms, 0699ms total)
T2020 010:555 JLINK_ReadReg(R2)  returns 0x00000011 (0000ms, 0699ms total)
T2020 010:555 JLINK_ReadReg(R3)  returns 0x00000500 (0000ms, 0699ms total)
T2020 010:555 JLINK_ReadReg(R4)  returns 0x080026D4 (0000ms, 0699ms total)
T2020 010:555 JLINK_ReadReg(R5)  returns 0x080026D4 (0000ms, 0699ms total)
T2020 010:555 JLINK_ReadReg(R6)  returns 0x33921F85 (0000ms, 0699ms total)
T2020 010:555 JLINK_ReadReg(R7)  returns 0xA4223DBC (0000ms, 0699ms total)
T2020 010:555 JLINK_ReadReg(R8)  returns 0xFFEFF7BC (0000ms, 0699ms total)
T2020 010:555 JLINK_ReadReg(R9)  returns 0xFFFDFFDF (0000ms, 0699ms total)
T2020 010:555 JLINK_ReadReg(R10)  returns 0x27ACFD68 (0000ms, 0699ms total)
T2020 010:555 JLINK_ReadReg(R11)  returns 0x7BD63F96 (0000ms, 0699ms total)
T2020 010:555 JLINK_ReadReg(R12)  returns 0xFFFFFFFF (0000ms, 0699ms total)
T2020 010:555 JLINK_ReadReg(R13 (SP))  returns 0x20001910 (0000ms, 0699ms total)
T2020 010:555 JLINK_ReadReg(R14)  returns 0x080008F7 (0000ms, 0699ms total)
T2020 010:555 JLINK_ReadReg(R15 (PC))  returns 0x080011B4 (0000ms, 0699ms total)
T2020 010:555 JLINK_ReadReg(XPSR)  returns 0x41000000 (0000ms, 0699ms total)
T2020 010:555 JLINK_ReadReg(MSP)  returns 0x20001910 (0000ms, 0699ms total)
T2020 010:555 JLINK_ReadReg(PSP)  returns 0xAF6162E8 (0000ms, 0699ms total)
T2020 010:555 JLINK_ReadReg(CFBP)  returns 0x00000000 (0000ms, 0699ms total)
T30FC 010:555 JLINK_ReadMem (0x20001914, 0x0004 Bytes, ...) -- CPU_ReadMem(64 bytes @ 0x20001900) -- Updating C cache (64 bytes @ 0x20001900) -- Read from C cache (4 bytes @ 0x20001914) -- Data:  AD 01 00 08  returns 0x00 (0001ms, 0700ms total)
T30FC 010:556 JLINK_ReadMem (0x20001910, 0x0004 Bytes, ...) -- Read from C cache (4 bytes @ 0x20001910) -- Data:  D4 26 00 08  returns 0x00 (0000ms, 0700ms total)
T30FC 010:556 JLINK_ReadMem (0x2000191C, 0x0004 Bytes, ...) -- Read from C cache (4 bytes @ 0x2000191C) -- Data:  19 25 00 08  returns 0x00 (0000ms, 0700ms total)
T30FC 010:557 JLINK_ReadMem (0x20000058, 0x0004 Bytes, ...) -- CPU_ReadMem(64 bytes @ 0x20000040) -- Updating C cache (64 bytes @ 0x20000040) -- Read from C cache (4 bytes @ 0x20000058) -- Data:  00 15 00 20  returns 0x00 (0001ms, 0701ms total)
T30FC 010:558 JLINK_ReadMem (0xE000E018, 0x0004 Bytes, ...) -- CPU_ReadMem(4 bytes @ 0xE000E018) -- Data:  00 00 00 00  returns 0x00 (0000ms, 0701ms total)
T30FC 010:559 JLINK_ReadMem (0x40013000, 0x0020 Bytes, ...) -- CPU_ReadMem(32 bytes @ 0x40013000) -- Data:  00 00 00 00 00 00 00 00 00 00 00 00 00 00 00 00 ...  returns 0x00 (0001ms, 0702ms total)
T30FC 010:560 JLINK_ReadMem (0x40013020, 0x0004 Bytes, ...) -- CPU_ReadMem(4 bytes @ 0x40013020) -- Data:  00 00 00 00  returns 0x00 (0000ms, 0702ms total)
T30FC 010:560 JLINK_ReadMem (0x40010C00, 0x000C Bytes, ...) -- CPU_ReadMem(12 bytes @ 0x40010C00) -- Data:  44 44 48 44 44 44 44 44 00 00 00 00  returns 0x00 (0001ms, 0703ms total)
T30FC 010:561 JLINK_ReadMem (0x40010C0C, 0x0004 Bytes, ...) -- CPU_ReadMem(4 bytes @ 0x40010C0C) -- Data:  10 00 00 00  returns 0x00 (0000ms, 0703ms total)
T30FC 010:561 JLINK_ReadMem (0x40010C18, 0x0004 Bytes, ...) -- CPU_ReadMem(4 bytes @ 0x40010C18) -- Data:  00 00 00 00  returns 0x00 (0001ms, 0704ms total)
T2020 010:647 JLINK_ReadMem (0x080011B4, 0x003C Bytes, ...) -- CPU_ReadMem(128 bytes @ 0x08001180) -- Updating C cache (128 bytes @ 0x08001180) -- Read from C cache (60 bytes @ 0x080011B4) -- Data:  04 46 00 BF 00 2C FD D0 00 20 FF F7 CA FB 00 20 ...  returns 0x00 (0002ms, 0706ms total)
T2020 010:649 JLINK_Step() -- Read from C cache (2 bytes @ 0x080011B4) -- Simulated  returns 0x00 (0000ms, 0706ms total)
T2020 010:649 JLINK_ReadReg(R15 (PC))  returns 0x080011B6 (0000ms, 0706ms total)
T2020 010:649 JLINK_ReadReg(XPSR)  returns 0x41000000 (0000ms, 0706ms total)
T2020 010:649 JLINK_ReadReg(R0)  returns 0x00000000 (0000ms, 0706ms total)
T2020 010:649 JLINK_ReadReg(R1)  returns 0x00000031 (0000ms, 0706ms total)
T2020 010:649 JLINK_ReadReg(R2)  returns 0x00000011 (0000ms, 0706ms total)
T2020 010:649 JLINK_ReadReg(R3)  returns 0x00000500 (0000ms, 0706ms total)
T2020 010:649 JLINK_ReadReg(R4)  returns 0x00000000 (0000ms, 0706ms total)
T2020 010:649 JLINK_ReadReg(R5)  returns 0x080026D4 (0000ms, 0706ms total)
T2020 010:649 JLINK_ReadReg(R6)  returns 0x33921F85 (0000ms, 0706ms total)
T2020 010:649 JLINK_ReadReg(R7)  returns 0xA4223DBC (0000ms, 0706ms total)
T2020 010:649 JLINK_ReadReg(R8)  returns 0xFFEFF7BC (0000ms, 0706ms total)
T2020 010:649 JLINK_ReadReg(R9)  returns 0xFFFDFFDF (0000ms, 0706ms total)
T2020 010:649 JLINK_ReadReg(R10)  returns 0x27ACFD68 (0000ms, 0706ms total)
T2020 010:649 JLINK_ReadReg(R11)  returns 0x7BD63F96 (0000ms, 0706ms total)
T2020 010:649 JLINK_ReadReg(R12)  returns 0xFFFFFFFF (0000ms, 0706ms total)
T2020 010:649 JLINK_ReadReg(R13 (SP))  returns 0x20001910 (0000ms, 0706ms total)
T2020 010:649 JLINK_ReadReg(R14)  returns 0x080008F7 (0000ms, 0706ms total)
T2020 010:649 JLINK_ReadReg(R15 (PC))  returns 0x080011B6 (0000ms, 0706ms total)
T2020 010:649 JLINK_ReadReg(XPSR)  returns 0x41000000 (0000ms, 0706ms total)
T2020 010:649 JLINK_ReadReg(MSP)  returns 0x20001910 (0000ms, 0706ms total)
T2020 010:649 JLINK_ReadReg(PSP)  returns 0xAF6162E8 (0000ms, 0706ms total)
T2020 010:649 JLINK_ReadReg(CFBP)  returns 0x00000000 (0000ms, 0706ms total)
T30FC 010:649 JLINK_ReadMem (0x20001914, 0x0004 Bytes, ...) -- Read from C cache (4 bytes @ 0x20001914) -- Data:  AD 01 00 08  returns 0x00 (0000ms, 0706ms total)
T30FC 010:649 JLINK_ReadMem (0x20001910, 0x0004 Bytes, ...) -- Read from C cache (4 bytes @ 0x20001910) -- Data:  D4 26 00 08  returns 0x00 (0000ms, 0706ms total)
T30FC 010:649 JLINK_ReadMem (0x2000191C, 0x0004 Bytes, ...) -- Read from C cache (4 bytes @ 0x2000191C) -- Data:  19 25 00 08  returns 0x00 (0000ms, 0706ms total)
T30FC 010:650 JLINK_ReadMem (0x20000058, 0x0004 Bytes, ...) -- Read from C cache (4 bytes @ 0x20000058) -- Data:  00 15 00 20  returns 0x00 (0000ms, 0706ms total)
T30FC 010:650 JLINK_ReadMem (0xE000E018, 0x0004 Bytes, ...) -- CPU_ReadMem(4 bytes @ 0xE000E018) -- Data:  00 00 00 00  returns 0x00 (0001ms, 0707ms total)
T30FC 010:652 JLINK_ReadMem (0x40013000, 0x0020 Bytes, ...) -- CPU_ReadMem(32 bytes @ 0x40013000) -- Data:  00 00 00 00 00 00 00 00 00 00 00 00 00 00 00 00 ...  returns 0x00 (0001ms, 0708ms total)
T30FC 010:653 JLINK_ReadMem (0x40013020, 0x0004 Bytes, ...) -- CPU_ReadMem(4 bytes @ 0x40013020) -- Data:  00 00 00 00  returns 0x00 (0000ms, 0708ms total)
T30FC 010:653 JLINK_ReadMem (0x40010C00, 0x000C Bytes, ...) -- CPU_ReadMem(12 bytes @ 0x40010C00) -- Data:  44 44 48 44 44 44 44 44 00 00 00 00  returns 0x00 (0001ms, 0709ms total)
T30FC 010:654 JLINK_ReadMem (0x40010C0C, 0x0004 Bytes, ...) -- CPU_ReadMem(4 bytes @ 0x40010C0C) -- Data:  10 00 00 00  returns 0x00 (0001ms, 0710ms total)
T30FC 010:655 JLINK_ReadMem (0x40010C18, 0x0004 Bytes, ...) -- CPU_ReadMem(4 bytes @ 0x40010C18) -- Data:  00 00 00 00  returns 0x00 (0000ms, 0710ms total)
T30FC 010:655 JLINK_ReadMem (0x080011B6, 0x0002 Bytes, ...) -- Read from C cache (2 bytes @ 0x080011B6) -- Data:  00 BF  returns 0x00 (0000ms, 0710ms total)
T30FC 010:655 JLINK_ReadMem (0x080011B8, 0x003C Bytes, ...) -- Read from C cache (60 bytes @ 0x080011B8) -- Data:  00 2C FD D0 00 20 FF F7 CA FB 00 20 FF F7 D0 FB ...  returns 0x00 (0000ms, 0710ms total)
T2020 010:822 JLINK_Step() -- Read from C cache (2 bytes @ 0x080011B6) -- Simulated  returns 0x00 (0000ms, 0710ms total)
T2020 010:822 JLINK_ReadReg(R15 (PC))  returns 0x080011B8 (0000ms, 0710ms total)
T2020 010:822 JLINK_ReadReg(XPSR)  returns 0x41000000 (0000ms, 0710ms total)
T2020 010:822 JLINK_ReadReg(R0)  returns 0x00000000 (0000ms, 0710ms total)
T2020 010:822 JLINK_ReadReg(R1)  returns 0x00000031 (0000ms, 0710ms total)
T2020 010:822 JLINK_ReadReg(R2)  returns 0x00000011 (0000ms, 0710ms total)
T2020 010:822 JLINK_ReadReg(R3)  returns 0x00000500 (0000ms, 0710ms total)
T2020 010:822 JLINK_ReadReg(R4)  returns 0x00000000 (0000ms, 0710ms total)
T2020 010:822 JLINK_ReadReg(R5)  returns 0x080026D4 (0000ms, 0710ms total)
T2020 010:822 JLINK_ReadReg(R6)  returns 0x33921F85 (0000ms, 0710ms total)
T2020 010:822 JLINK_ReadReg(R7)  returns 0xA4223DBC (0000ms, 0710ms total)
T2020 010:822 JLINK_ReadReg(R8)  returns 0xFFEFF7BC (0000ms, 0710ms total)
T2020 010:822 JLINK_ReadReg(R9)  returns 0xFFFDFFDF (0000ms, 0710ms total)
T2020 010:822 JLINK_ReadReg(R10)  returns 0x27ACFD68 (0000ms, 0710ms total)
T2020 010:822 JLINK_ReadReg(R11)  returns 0x7BD63F96 (0000ms, 0710ms total)
T2020 010:822 JLINK_ReadReg(R12)  returns 0xFFFFFFFF (0000ms, 0710ms total)
T2020 010:822 JLINK_ReadReg(R13 (SP))  returns 0x20001910 (0000ms, 0710ms total)
T2020 010:822 JLINK_ReadReg(R14)  returns 0x080008F7 (0000ms, 0710ms total)
T2020 010:822 JLINK_ReadReg(R15 (PC))  returns 0x080011B8 (0000ms, 0710ms total)
T2020 010:822 JLINK_ReadReg(XPSR)  returns 0x41000000 (0000ms, 0710ms total)
T2020 010:822 JLINK_ReadReg(MSP)  returns 0x20001910 (0000ms, 0710ms total)
